
**** 03/31/19 18:12:25 ******* PSpice Lite (March 2016) ******* ID# 10813 ****

 ** Profile: "SCHEMATIC1-simDC"  [ C:\Users\hp\Documents\OrCAD examples\first-PSpiceFiles\SCHEMATIC1\simDC.sim ] 


 ****     CIRCUIT DESCRIPTION


******************************************************************************




** Creating circuit file "simDC.cir" 
** WARNING: THIS AUTOMATICALLY GENERATED FILE MAY BE OVERWRITTEN BY SUBSEQUENT SIMULATIONS

*Libraries: 
* Profile Libraries :
* Local Libraries :
* From [PSPICE NETLIST] section of C:\Users\hp\AppData\Roaming\SPB_Data\cdssetup\OrCAD_PSpice\17.2.0\PSpice.ini file:
.lib "nomd.lib" 

*Analysis directives: 
.TRAN  0 120m 0 1u 
.OPTIONS ADVCONV
.PROBE64 V(alias(*)) I(alias(*)) W(alias(*)) D(alias(*)) NOISE(alias(*)) 
.INC "..\SCHEMATIC1.net" 



**** INCLUDING SCHEMATIC1.net ****
* source FIRST
V_V1         N00099 0 1V
R_R1         N00099 N00106  1k TC=0,0 
R_R2         N00106 N00110  2k TC=0,0 
R_R3         0 N00110  3k TC=0,0 
R_R4         N00275 N00282  1k TC=0,0 
C_C1         0 N00282  3u  TC=0,0 
V_V2         N00275 0  
+PULSE 0 1 10m 1u 1u 20m 40m

**** RESUMING simDC.cir ****
.END

**** 03/31/19 18:12:25 ******* PSpice Lite (March 2016) ******* ID# 10813 ****

 ** Profile: "SCHEMATIC1-simDC"  [ C:\Users\hp\Documents\OrCAD examples\first-PSpiceFiles\SCHEMATIC1\simDC.sim ] 


 ****     INITIAL TRANSIENT SOLUTION       TEMPERATURE =   27.000 DEG C


******************************************************************************



 NODE   VOLTAGE     NODE   VOLTAGE     NODE   VOLTAGE     NODE   VOLTAGE


(N00099)    1.0000 (N00106)     .8333 (N00110)     .5000 (N00275)    0.0000     

(N00282)    0.0000 




    VOLTAGE SOURCE CURRENTS
    NAME         CURRENT

    V_V1        -1.667E-04
    V_V2         0.000E+00

    TOTAL POWER DISSIPATION   1.67E-04  WATTS



          JOB CONCLUDED

**** 03/31/19 18:12:25 ******* PSpice Lite (March 2016) ******* ID# 10813 ****

 ** Profile: "SCHEMATIC1-simDC"  [ C:\Users\hp\Documents\OrCAD examples\first-PSpiceFiles\SCHEMATIC1\simDC.sim ] 


 ****     JOB STATISTICS SUMMARY


******************************************************************************



  Total job time (using Solver 1)   =        1.05
